!Agilent Technologies,E5071C,MY46107436,A.09.30
!Date: Tue Mar 06 21:07:36 2018
!Data & Calibration Information:
!Freq	S11:NONE(--)	S21:NONE(--)	S12:NONE(--)	S22:NONE(--)
# Hz S dB R 50
300000	6.794690e-003	-5.619321e-001	-2.000000e+002	0.000000e+000	-6.597094e+001	1.528575e+002	-2.000000e+002	0.000000e+000
20298500	-1.061192e-002	-6.291950e+001	-2.000000e+002	0.000000e+000	-7.986469e+001	-1.486084e+002	-2.000000e+002	0.000000e+000
40297000	-7.331179e-002	-1.251311e+002	-2.000000e+002	0.000000e+000	-8.410880e+001	3.392859e+001	-2.000000e+002	0.000000e+000
60295500	-1.541766e-001	1.727125e+002	-2.000000e+002	0.000000e+000	-8.275316e+001	1.671002e+002	-2.000000e+002	0.000000e+000
80294000	-2.373277e-001	1.103624e+002	-2.000000e+002	0.000000e+000	-7.448556e+001	9.165026e+001	-2.000000e+002	0.000000e+000
100292500	-2.169874e-001	4.828836e+001	-2.000000e+002	0.000000e+000	-7.823781e+001	1.791913e+002	-2.000000e+002	0.000000e+000
120291000	-1.926503e-001	-1.393352e+001	-2.000000e+002	0.000000e+000	-9.236698e+001	-6.413698e+001	-2.000000e+002	0.000000e+000
140289500	-1.921443e-001	-7.606145e+001	-2.000000e+002	0.000000e+000	-7.918619e+001	-8.140817e+000	-2.000000e+002	0.000000e+000
160288000	-2.374238e-001	-1.380829e+002	-2.000000e+002	0.000000e+000	-7.635480e+001	9.505265e+001	-2.000000e+002	0.000000e+000
180286500	-2.900646e-001	1.598054e+002	-2.000000e+002	0.000000e+000	-7.749702e+001	-1.687519e+001	-2.000000e+002	0.000000e+000
200285000	-3.273858e-001	9.759844e+001	-2.000000e+002	0.000000e+000	-7.922211e+001	8.489998e+001	-2.000000e+002	0.000000e+000
220283500	-3.148969e-001	3.507485e+001	-2.000000e+002	0.000000e+000	-8.430077e+001	1.504699e+002	-2.000000e+002	0.000000e+000
240282000	-2.928768e-001	-2.754112e+001	-2.000000e+002	0.000000e+000	-7.777902e+001	1.507887e+002	-2.000000e+002	0.000000e+000
260280500	-3.039811e-001	-9.010941e+001	-2.000000e+002	0.000000e+000	-7.919987e+001	-1.248254e+002	-2.000000e+002	0.000000e+000
280279000	-3.430733e-001	-1.525569e+002	-2.000000e+002	0.000000e+000	-8.026940e+001	8.143650e+001	-2.000000e+002	0.000000e+000
300277500	-3.912856e-001	1.449178e+002	-2.000000e+002	0.000000e+000	-9.096171e+001	6.554246e+000	-2.000000e+002	0.000000e+000
320276000	-3.996373e-001	8.200948e+001	-2.000000e+002	0.000000e+000	-8.004191e+001	1.331979e+002	-2.000000e+002	0.000000e+000
340274500	-3.932055e-001	1.866365e+001	-2.000000e+002	0.000000e+000	-7.878574e+001	-1.268675e+002	-2.000000e+002	0.000000e+000
360273000	-3.873728e-001	-4.485244e+001	-2.000000e+002	0.000000e+000	-8.656103e+001	-8.234189e+001	-2.000000e+002	0.000000e+000
380271500	-4.046405e-001	-1.082812e+002	-2.000000e+002	0.000000e+000	-7.597876e+001	6.783044e+001	-2.000000e+002	0.000000e+000
400270000	-4.370998e-001	-1.713837e+002	-2.000000e+002	0.000000e+000	-7.561857e+001	-4.020647e+001	-2.000000e+002	0.000000e+000
420268500	-4.722264e-001	1.256265e+002	-2.000000e+002	0.000000e+000	-7.729635e+001	-9.043389e+001	-2.000000e+002	0.000000e+000
440267000	-4.889721e-001	6.246454e+001	-2.000000e+002	0.000000e+000	-8.110135e+001	-1.262016e+002	-2.000000e+002	0.000000e+000
460265500	-4.847556e-001	-1.361562e+000	-2.000000e+002	0.000000e+000	-7.494818e+001	2.952652e+001	-2.000000e+002	0.000000e+000
480264000	-4.816076e-001	-6.574908e+001	-2.000000e+002	0.000000e+000	-8.932671e+001	1.322154e+002	-2.000000e+002	0.000000e+000
500262500	-5.064293e-001	-1.303030e+002	-2.000000e+002	0.000000e+000	-7.666635e+001	-2.639448e+001	-2.000000e+002	0.000000e+000
520261000	-5.435141e-001	1.656572e+002	-2.000000e+002	0.000000e+000	-7.582189e+001	-1.237373e+002	-2.000000e+002	0.000000e+000
540259500	-5.657149e-001	1.023450e+002	-2.000000e+002	0.000000e+000	-6.999521e+001	1.778709e+002	-2.000000e+002	0.000000e+000
560258000	-5.588924e-001	3.913011e+001	-2.000000e+002	0.000000e+000	-6.820810e+001	8.927780e+001	-2.000000e+002	0.000000e+000
580256500	-5.459725e-001	-2.462171e+001	-2.000000e+002	0.000000e+000	-7.018987e+001	-2.905462e+001	-2.000000e+002	0.000000e+000
600255000	-5.647295e-001	-8.914244e+001	-2.000000e+002	0.000000e+000	-7.241284e+001	-8.773923e+001	-2.000000e+002	0.000000e+000
620253500	-5.979837e-001	-1.538913e+002	-2.000000e+002	0.000000e+000	-7.182862e+001	1.403417e+002	-2.000000e+002	0.000000e+000
640252000	-6.238795e-001	1.419703e+002	-2.000000e+002	0.000000e+000	-7.309860e+001	9.034870e+001	-2.000000e+002	0.000000e+000
660250500	-6.258628e-001	7.875855e+001	-2.000000e+002	0.000000e+000	-6.951463e+001	3.733524e+000	-2.000000e+002	0.000000e+000
680249000	-6.055357e-001	1.598844e+001	-2.000000e+002	0.000000e+000	-6.597056e+001	-6.887378e+001	-2.000000e+002	0.000000e+000
700247500	-5.984655e-001	-4.708967e+001	-2.000000e+002	0.000000e+000	-7.003260e+001	1.756532e+002	-2.000000e+002	0.000000e+000
720246000	-6.245336e-001	-1.110597e+002	-2.000000e+002	0.000000e+000	-6.860858e+001	6.815949e+001	-2.000000e+002	0.000000e+000
740244500	-6.616568e-001	-1.754910e+002	-2.000000e+002	0.000000e+000	-6.761389e+001	-6.505459e+000	-2.000000e+002	0.000000e+000
760243000	-6.747140e-001	1.204414e+002	-2.000000e+002	0.000000e+000	-7.680114e+001	-8.590639e+001	-2.000000e+002	0.000000e+000
780241500	-6.625576e-001	5.741156e+001	-2.000000e+002	0.000000e+000	-7.846077e+001	-5.203082e+001	-2.000000e+002	0.000000e+000
800240000	-6.381184e-001	-4.864593e+000	-2.000000e+002	0.000000e+000	-7.215663e+001	-1.772571e+002	-2.000000e+002	0.000000e+000
820238500	-6.372629e-001	-6.709728e+001	-2.000000e+002	0.000000e+000	-6.859600e+001	1.102087e+002	-2.000000e+002	0.000000e+000
840237000	-6.594973e-001	-1.299434e+002	-2.000000e+002	0.000000e+000	-7.264158e+001	-2.245182e+001	-2.000000e+002	0.000000e+000
860235500	-6.942805e-001	1.666980e+002	-2.000000e+002	0.000000e+000	-7.263381e+001	-6.608354e+001	-2.000000e+002	0.000000e+000
880234000	-7.026826e-001	1.036213e+002	-2.000000e+002	0.000000e+000	-7.341293e+001	-8.684129e+001	-2.000000e+002	0.000000e+000
900232500	-6.827667e-001	4.131128e+001	-2.000000e+002	0.000000e+000	-6.711377e+001	1.798371e+002	-2.000000e+002	0.000000e+000
920231000	-6.551464e-001	-2.029862e+001	-2.000000e+002	0.000000e+000	-6.454221e+001	9.031286e+001	-2.000000e+002	0.000000e+000
940229500	-6.568138e-001	-8.182662e+001	-2.000000e+002	0.000000e+000	-6.331035e+001	-1.268435e+001	-2.000000e+002	0.000000e+000
960228000	-6.883126e-001	-1.437788e+002	-2.000000e+002	0.000000e+000	-6.526195e+001	-1.439738e+002	-2.000000e+002	0.000000e+000
980226500	-7.222817e-001	1.539321e+002	-2.000000e+002	0.000000e+000	-7.139768e+001	1.093866e+002	-2.000000e+002	0.000000e+000
1000225000	-7.229060e-001	9.188870e+001	-2.000000e+002	0.000000e+000	-7.375461e+001	5.770456e+001	-2.000000e+002	0.000000e+000
1020223500	-6.850921e-001	3.048302e+001	-2.000000e+002	0.000000e+000	-7.392010e+001	5.824250e+001	-2.000000e+002	0.000000e+000
1040222000	-6.540940e-001	-3.036596e+001	-2.000000e+002	0.000000e+000	-6.904766e+001	-3.536497e+001	-2.000000e+002	0.000000e+000
1060220500	-6.656551e-001	-9.120998e+001	-2.000000e+002	0.000000e+000	-6.846784e+001	-1.350480e+002	-2.000000e+002	0.000000e+000
1080219000	-7.165516e-001	-1.524908e+002	-2.000000e+002	0.000000e+000	-6.876155e+001	1.177995e+002	-2.000000e+002	0.000000e+000
1100217500	-7.463559e-001	1.457765e+002	-2.000000e+002	0.000000e+000	-8.125286e+001	-5.397802e+001	-2.000000e+002	0.000000e+000
1120216000	-7.141777e-001	8.402957e+001	-2.000000e+002	0.000000e+000	-8.275438e+001	-1.574319e+002	-2.000000e+002	0.000000e+000
1140214500	-6.775949e-001	2.267643e+001	-2.000000e+002	0.000000e+000	-8.148620e+001	8.168328e+001	-2.000000e+002	0.000000e+000
1160213000	-6.672379e-001	-3.800448e+001	-2.000000e+002	0.000000e+000	-7.466102e+001	-7.365909e+001	-2.000000e+002	0.000000e+000
1180211500	-7.072630e-001	-9.849839e+001	-2.000000e+002	0.000000e+000	-6.816051e+001	1.499861e+002	-2.000000e+002	0.000000e+000
1200210000	-7.505847e-001	-1.597436e+002	-2.000000e+002	0.000000e+000	-5.729501e+001	7.447822e+001	-2.000000e+002	0.000000e+000
1220208500	-8.176515e-001	1.366283e+002	-2.000000e+002	0.000000e+000	-4.012321e+001	-1.666231e+001	-2.000000e+002	0.000000e+000
1240207000	-9.245868e-001	7.744725e+001	-2.000000e+002	0.000000e+000	-2.645894e+001	1.266499e+002	-2.000000e+002	0.000000e+000
1260205500	-3.058074e+000	8.111397e+000	-2.000000e+002	0.000000e+000	-1.518812e+001	-1.266132e+001	-2.000000e+002	0.000000e+000
1280204000	-8.933208e-001	-4.200679e+001	-2.000000e+002	0.000000e+000	-2.202726e+001	1.671603e+002	-2.000000e+002	0.000000e+000
1300202500	-3.625254e+000	-1.113318e+002	-2.000000e+002	0.000000e+000	-1.146006e+001	3.165661e+001	-2.000000e+002	0.000000e+000
1320201000	-1.001287e+000	-1.571259e+002	-2.000000e+002	0.000000e+000	-2.173118e+001	-1.499077e+002	-2.000000e+002	0.000000e+000
1340199500	-2.029241e+000	1.325922e+002	-2.000000e+002	0.000000e+000	-1.610941e+001	1.002580e+002	-2.000000e+002	0.000000e+000
1360198000	-1.021846e+000	8.427003e+001	-2.000000e+002	0.000000e+000	-2.503677e+001	-1.011025e+002	-2.000000e+002	0.000000e+000
1380196500	-1.817398e+000	2.603991e+001	-2.000000e+002	0.000000e+000	-2.259870e+001	7.224278e+001	-2.000000e+002	0.000000e+000
1400195000	-7.775355e-001	-3.810318e+001	-2.000000e+002	0.000000e+000	-4.522153e+001	-5.574082e+001	-2.000000e+002	0.000000e+000
1420193500	-7.815287e-001	-9.853239e+001	-2.000000e+002	0.000000e+000	-5.683260e+001	-1.397118e+002	-2.000000e+002	0.000000e+000
1440192000	-8.168369e-001	-1.580669e+002	-2.000000e+002	0.000000e+000	-6.442461e+001	1.530786e+002	-2.000000e+002	0.000000e+000
1460190500	-8.366238e-001	1.419543e+002	-2.000000e+002	0.000000e+000	-7.014884e+001	6.640862e+001	-2.000000e+002	0.000000e+000
1480189000	-8.290507e-001	8.118936e+001	-2.000000e+002	0.000000e+000	-7.626786e+001	-4.448451e+001	-2.000000e+002	0.000000e+000
1500187500	-8.009733e-001	2.008506e+001	-2.000000e+002	0.000000e+000	-7.646231e+001	-9.026551e+001	-2.000000e+002	0.000000e+000
1520186000	-7.757617e-001	-4.046890e+001	-2.000000e+002	0.000000e+000	-7.235824e+001	1.078041e+002	-2.000000e+002	0.000000e+000
1540184500	-7.727138e-001	-1.001498e+002	-2.000000e+002	0.000000e+000	-7.891138e+001	6.484548e+001	-2.000000e+002	0.000000e+000
1560183000	-8.052455e-001	-1.592454e+002	-2.000000e+002	0.000000e+000	-7.547055e+001	-4.317386e+001	-2.000000e+002	0.000000e+000
1580181500	-8.374660e-001	1.415030e+002	-2.000000e+002	0.000000e+000	-7.354089e+001	-1.606648e+002	-2.000000e+002	0.000000e+000
1600180000	-8.560298e-001	8.155380e+001	-2.000000e+002	0.000000e+000	-7.221403e+001	1.542370e+002	-2.000000e+002	0.000000e+000
1620178500	-8.355450e-001	2.094875e+001	-2.000000e+002	0.000000e+000	-6.890664e+001	4.370587e+001	-2.000000e+002	0.000000e+000
1640177000	-8.069717e-001	-3.971807e+001	-2.000000e+002	0.000000e+000	-6.920136e+001	-3.849253e+001	-2.000000e+002	0.000000e+000
1660175500	-7.994347e-001	-9.981384e+001	-2.000000e+002	0.000000e+000	-7.455972e+001	-1.059552e+002	-2.000000e+002	0.000000e+000
1680174000	-8.242733e-001	-1.592275e+002	-2.000000e+002	0.000000e+000	-7.512336e+001	1.784414e+002	-2.000000e+002	0.000000e+000
1700172500	-8.658417e-001	1.415131e+002	-2.000000e+002	0.000000e+000	-7.341158e+001	8.081999e+001	-2.000000e+002	0.000000e+000
1720171000	-8.848373e-001	8.173098e+001	-2.000000e+002	0.000000e+000	-7.405736e+001	3.770968e+001	-2.000000e+002	0.000000e+000
1740169500	-8.603381e-001	2.108776e+001	-2.000000e+002	0.000000e+000	-7.053296e+001	-5.780740e+001	-2.000000e+002	0.000000e+000
1760168000	-8.218784e-001	-3.987824e+001	-2.000000e+002	0.000000e+000	-6.900068e+001	-1.204152e+002	-2.000000e+002	0.000000e+000
1780166500	-8.156981e-001	-1.002712e+002	-2.000000e+002	0.000000e+000	-7.651575e+001	-1.701082e+002	-2.000000e+002	0.000000e+000
1800165000	-8.567984e-001	-1.597356e+002	-2.000000e+002	0.000000e+000	-7.580432e+001	1.232217e+002	-2.000000e+002	0.000000e+000
1820163500	-8.988380e-001	1.413089e+002	-2.000000e+002	0.000000e+000	-8.336083e+001	8.651921e+001	-2.000000e+002	0.000000e+000
1840162000	-9.032793e-001	8.170352e+001	-2.000000e+002	0.000000e+000	-7.354510e+001	-2.446093e-001	-2.000000e+002	0.000000e+000
1860160500	-8.691260e-001	2.079026e+001	-2.000000e+002	0.000000e+000	-7.324445e+001	-5.879433e+001	-2.000000e+002	0.000000e+000
1880159000	-8.331030e-001	-4.098048e+001	-2.000000e+002	0.000000e+000	-7.097273e+001	-1.381621e+002	-2.000000e+002	0.000000e+000
1900157500	-8.654842e-001	-1.022940e+002	-2.000000e+002	0.000000e+000	-7.224709e+001	-1.775667e+002	-2.000000e+002	0.000000e+000
1920156000	-9.141600e-001	-1.623924e+002	-2.000000e+002	0.000000e+000	-6.928350e+001	8.551637e+001	-2.000000e+002	0.000000e+000
1940154500	-9.459033e-001	1.382804e+002	-2.000000e+002	0.000000e+000	-6.691075e+001	-1.040455e+001	-2.000000e+002	0.000000e+000
1960153000	-9.290241e-001	7.843911e+001	-2.000000e+002	0.000000e+000	-6.809527e+001	-9.579913e+001	-2.000000e+002	0.000000e+000
1980151500	-9.058738e-001	1.730599e+001	-2.000000e+002	0.000000e+000	-6.776449e+001	-1.512425e+002	-2.000000e+002	0.000000e+000
2000150000	-9.177637e-001	-4.431712e+001	-2.000000e+002	0.000000e+000	-6.565838e+001	1.151969e+002	-2.000000e+002	0.000000e+000
2020148500	-9.652776e-001	-1.058374e+002	-2.000000e+002	0.000000e+000	-6.892058e+001	1.966956e+001	-2.000000e+002	0.000000e+000
2040147000	-1.006324e+000	-1.664789e+002	-2.000000e+002	0.000000e+000	-6.841886e+001	-2.388508e+001	-2.000000e+002	0.000000e+000
2060145500	-1.070879e+000	1.332009e+002	-2.000000e+002	0.000000e+000	-7.142694e+001	-1.104727e+002	-2.000000e+002	0.000000e+000
2080144000	-1.144086e+000	7.271477e+001	-2.000000e+002	0.000000e+000	-7.105581e+001	1.796506e+002	-2.000000e+002	0.000000e+000
2100142500	-1.137560e+000	1.138312e+001	-2.000000e+002	0.000000e+000	-6.921783e+001	1.683178e+002	-2.000000e+002	0.000000e+000
2120141000	-1.103736e+000	-5.081303e+001	-2.000000e+002	0.000000e+000	-6.635004e+001	8.554374e+001	-2.000000e+002	0.000000e+000
2140139500	-1.097320e+000	-1.135271e+002	-2.000000e+002	0.000000e+000	-6.529855e+001	4.778183e+000	-2.000000e+002	0.000000e+000
2160138000	-1.172154e+000	-1.757372e+002	-2.000000e+002	0.000000e+000	-6.259421e+001	-6.879525e+001	-2.000000e+002	0.000000e+000
2180136500	-1.258086e+000	1.227933e+002	-2.000000e+002	0.000000e+000	-5.989411e+001	-1.572592e+002	-2.000000e+002	0.000000e+000
2200135000	-1.265055e+000	6.109637e+001	-2.000000e+002	0.000000e+000	-6.016294e+001	1.293975e+002	-2.000000e+002	0.000000e+000
2220133500	-1.229717e+000	-1.839740e+000	-2.000000e+002	0.000000e+000	-6.042830e+001	5.398426e+001	-2.000000e+002	0.000000e+000
2240132000	-1.240215e+000	-6.610627e+001	-2.000000e+002	0.000000e+000	-5.797353e+001	-2.063096e+001	-2.000000e+002	0.000000e+000
2260130500	-1.319500e+000	-1.306607e+002	-2.000000e+002	0.000000e+000	-5.716827e+001	-1.101342e+002	-2.000000e+002	0.000000e+000
2280129000	-1.398745e+000	1.650077e+002	-2.000000e+002	0.000000e+000	-5.816319e+001	1.661886e+002	-2.000000e+002	0.000000e+000
2300127500	-1.450634e+000	1.005572e+002	-2.000000e+002	0.000000e+000	-5.581617e+001	8.690746e+001	-2.000000e+002	0.000000e+000
2320126000	-1.473504e+000	3.525634e+001	-2.000000e+002	0.000000e+000	-5.486398e+001	5.816653e+000	-2.000000e+002	0.000000e+000
2340124500	-1.541522e+000	-3.124005e+001	-2.000000e+002	0.000000e+000	-5.361842e+001	-9.048896e+001	-2.000000e+002	0.000000e+000
2360123000	-1.660862e+000	-9.881636e+001	-2.000000e+002	0.000000e+000	-5.144785e+001	1.742657e+002	-2.000000e+002	0.000000e+000
2380121500	-1.830592e+000	-1.673101e+002	-2.000000e+002	0.000000e+000	-4.730036e+001	7.348454e+001	-2.000000e+002	0.000000e+000
2400120000	-2.078189e+000	1.230837e+002	-2.000000e+002	0.000000e+000	-3.996963e+001	-4.024693e+001	-2.000000e+002	0.000000e+000
2420118500	-2.593997e+000	5.084744e+001	-2.000000e+002	0.000000e+000	-3.069363e+001	-1.432923e+002	-2.000000e+002	0.000000e+000
2440117000	-4.412293e+000	-2.061683e+001	-2.000000e+002	0.000000e+000	-1.926528e+001	8.710556e+001	-2.000000e+002	0.000000e+000
2460115500	-4.815081e+000	-8.578262e+001	-2.000000e+002	0.000000e+000	-1.350508e+001	-6.607211e+001	-2.000000e+002	0.000000e+000
2480114000	-8.211276e+000	-1.560781e+002	-2.000000e+002	0.000000e+000	-9.979853e+000	1.544952e+002	-2.000000e+002	0.000000e+000
2500112500	-6.312404e+000	1.616420e+002	-2.000000e+002	0.000000e+000	-9.228457e+000	1.178213e+001	-2.000000e+002	0.000000e+000
2520111000	-5.855720e+000	7.630610e+001	-2.000000e+002	0.000000e+000	-8.835412e+000	-1.090055e+002	-2.000000e+002	0.000000e+000
2540109500	-1.400827e+001	2.639151e+001	-2.000000e+002	0.000000e+000	-7.099996e+000	1.172660e+002	-2.000000e+002	0.000000e+000
2560108000	-5.325788e+000	-1.550560e+001	-2.000000e+002	0.000000e+000	-9.008466e+000	-1.636697e+001	-2.000000e+002	0.000000e+000
2580106500	-4.918887e+000	-1.098579e+002	-2.000000e+002	0.000000e+000	-9.791367e+000	-1.344393e+002	-2.000000e+002	0.000000e+000
2600105000	-1.545961e+001	-1.487729e+002	-2.000000e+002	0.000000e+000	-8.599744e+000	8.589539e+001	-2.000000e+002	0.000000e+000
2620103500	-3.828952e+000	1.571956e+002	-2.000000e+002	0.000000e+000	-1.394723e+001	-5.702518e+001	-2.000000e+002	0.000000e+000
2640102000	-4.593690e+000	6.611076e+001	-2.000000e+002	0.000000e+000	-1.432103e+001	1.795796e+002	-2.000000e+002	0.000000e+000
2660100500	-2.745141e+000	2.511060e+001	-2.000000e+002	0.000000e+000	-2.291968e+001	-5.143797e+000	-2.000000e+002	0.000000e+000
2680099000	-1.756851e+000	-5.286899e+001	-2.000000e+002	0.000000e+000	-3.514395e+001	-1.170061e+002	-2.000000e+002	0.000000e+000
2700097500	-1.567883e+000	-1.230207e+002	-2.000000e+002	0.000000e+000	-4.391560e+001	1.516797e+002	-2.000000e+002	0.000000e+000
2720096000	-1.510512e+000	1.700859e+002	-2.000000e+002	0.000000e+000	-4.874394e+001	6.131631e+001	-2.000000e+002	0.000000e+000
2740094500	-1.477439e+000	1.047172e+002	-2.000000e+002	0.000000e+000	-5.081058e+001	-5.209601e+001	-2.000000e+002	0.000000e+000
2760093000	-1.431399e+000	3.948343e+001	-2.000000e+002	0.000000e+000	-5.786063e+001	-1.772620e+002	-2.000000e+002	0.000000e+000
2780091500	-1.381924e+000	-2.602310e+001	-2.000000e+002	0.000000e+000	-6.325629e+001	1.002944e+002	-2.000000e+002	0.000000e+000
2800090000	-1.343740e+000	-9.099987e+001	-2.000000e+002	0.000000e+000	-6.925581e+001	2.001226e+001	-2.000000e+002	0.000000e+000
2820088500	-1.322056e+000	-1.544337e+002	-2.000000e+002	0.000000e+000	-7.614651e+001	-8.797291e+001	-2.000000e+002	0.000000e+000
2840087000	-1.310594e+000	1.434707e+002	-2.000000e+002	0.000000e+000	-7.848939e+001	-1.002484e+002	-2.000000e+002	0.000000e+000
2860085500	-1.310766e+000	8.157984e+001	-2.000000e+002	0.000000e+000	-6.937162e+001	-1.572521e+002	-2.000000e+002	0.000000e+000
2880084000	-1.305271e+000	1.884853e+001	-2.000000e+002	0.000000e+000	-7.226591e+001	1.398796e+002	-2.000000e+002	0.000000e+000
2900082500	-1.300467e+000	-4.461276e+001	-2.000000e+002	0.000000e+000	-7.144230e+001	4.605967e+001	-2.000000e+002	0.000000e+000
2920081000	-1.278656e+000	-1.076902e+002	-2.000000e+002	0.000000e+000	-6.967159e+001	-5.568229e+001	-2.000000e+002	0.000000e+000
2940079500	-1.254487e+000	-1.693325e+002	-2.000000e+002	0.000000e+000	-7.438898e+001	-1.095558e+002	-2.000000e+002	0.000000e+000
2960078000	-1.251069e+000	1.302775e+002	-2.000000e+002	0.000000e+000	-6.994872e+001	-1.573468e+002	-2.000000e+002	0.000000e+000
2980076500	-1.259667e+000	6.997084e+001	-2.000000e+002	0.000000e+000	-6.990119e+001	7.748866e+001	-2.000000e+002	0.000000e+000
3000075000	-1.273775e+000	8.690210e+000	-2.000000e+002	0.000000e+000	-7.488110e+001	-4.139862e+001	-2.000000e+002	0.000000e+000
3020073500	-1.255388e+000	-5.361666e+001	-2.000000e+002	0.000000e+000	-8.669455e+001	1.771700e+002	-2.000000e+002	0.000000e+000
3040072000	-1.239952e+000	-1.158383e+002	-2.000000e+002	0.000000e+000	-7.117041e+001	-1.189033e+002	-2.000000e+002	0.000000e+000
